
**** 11/19/18 21:54:09 ****** PSpice 17.2.0 (March 2016) ****** ID# 0 ********

 ** Profile: "SCHEMATIC1-bias"  [ I:\GitHubRoot\ElectronicDesign\testCircuit\cadence_voltage_divide\cadence_voltage_divide-pspicefile


 ****     CIRCUIT DESCRIPTION


******************************************************************************




** Creating circuit file "bias.cir" 
** WARNING: THIS AUTOMATICALLY GENERATED FILE MAY BE OVERWRITTEN BY SUBSEQUENT SIMULATIONS

*Libraries: 
* Profile Libraries :
* Local Libraries :
* From [PSPICE NETLIST] section of D:\Cadence\SPB_Data\cdssetup\OrCAD_PSpice\17.2.0\PSpice.ini file:
.lib "nom.lib" 

*Analysis directives: 
.OPTIONS ADVCONV
.PROBE64 V(alias(*)) I(alias(*)) W(alias(*)) D(alias(*)) NOISE(alias(*)) 
.INC "..\SCHEMATIC1.net" 



**** INCLUDING SCHEMATIC1.net ****
* source CADENCE_VOLTAGE_DIVIDE
R_R1         N14360 N14340  100k TC=0,0 
R_R2         0 N14360  24k TC=0,0 
V_V1         N14340 0 24Vdc
X_D1         N14340 N14947 LED PARAMS: IS=7.2015e-203 RS=2  BV=5 IBV=10e-6     
+     
M_M1         N14947 N14360 0 0 MbreakN           

**** RESUMING bias.cir ****
.END

WARNING(ORPSIM-15197): Diode X_D1.model201: Is cannot be zero.  Reset to 1e-030.

**** 11/19/18 21:54:09 ****** PSpice 17.2.0 (March 2016) ****** ID# 0 ********

 ** Profile: "SCHEMATIC1-bias"  [ I:\GitHubRoot\ElectronicDesign\testCircuit\cadence_voltage_divide\cadence_voltage_divide-pspicefile


 ****     Diode MODEL PARAMETERS


******************************************************************************




               X_D1.model201   
          IS    1.000000E-30 
           N    2            
          BV    5            
         IBV   10.000000E-06 
          RS    2            


**** 11/19/18 21:54:09 ****** PSpice 17.2.0 (March 2016) ****** ID# 0 ********

 ** Profile: "SCHEMATIC1-bias"  [ I:\GitHubRoot\ElectronicDesign\testCircuit\cadence_voltage_divide\cadence_voltage_divide-pspicefile


 ****     MOSFET MODEL PARAMETERS


******************************************************************************




               MbreakN         
               NMOS            
       LEVEL    1            
           L  100.000000E-06 
           W  100.000000E-06 
         VTO    0            
          KP   20.000000E-06 
       GAMMA    0            
         PHI     .6          
      LAMBDA    0            
          IS   10.000000E-15 
          JS    0            
          PB     .8          
        PBSW     .8          
          CJ    0            
        CJSW    0            
        CGSO    0            
        CGDO    0            
        CGBO    0            
         TOX    0            
          XJ    0            
       UCRIT   10.000000E+03 
      DIOMOD    1            
         VFB    0            
        LETA    0            
        WETA    0            
          U0    0            
        TEMP    0            
         VDD    5            
       XPART    0            


WARNING(ORPSIM-15197): Diode X_D1.model201: Is cannot be zero.  Reset to 1e-030.

**** 11/19/18 21:54:09 ****** PSpice 17.2.0 (March 2016) ****** ID# 0 ********

 ** Profile: "SCHEMATIC1-bias"  [ I:\GitHubRoot\ElectronicDesign\testCircuit\cadence_voltage_divide\cadence_voltage_divide-pspicefile


 ****     SMALL SIGNAL BIAS SOLUTION       TEMPERATURE =   27.000 DEG C


******************************************************************************



 NODE   VOLTAGE     NODE   VOLTAGE     NODE   VOLTAGE     NODE   VOLTAGE


(N14340)   24.0000 (N14360)    4.6452 (N14947)   20.8630 




    VOLTAGE SOURCE CURRENTS
    NAME         CURRENT

    V_V1        -4.093E-04

    TOTAL POWER DISSIPATION   9.82E-03  WATTS



          JOB CONCLUDED

**** 11/19/18 21:54:09 ****** PSpice 17.2.0 (March 2016) ****** ID# 0 ********

 ** Profile: "SCHEMATIC1-bias"  [ I:\GitHubRoot\ElectronicDesign\testCircuit\cadence_voltage_divide\cadence_voltage_divide-pspicefile


 ****     JOB STATISTICS SUMMARY


******************************************************************************



  License check-out time            =        1.38
  Total job time (using Solver 1)   =         .03
